     0  1  2  3  4  5  6  7  8  9  a  b  c  d  e  f    0123456789abcdef
00: 00 ff ff ff ff ff ff 00 21 34 03 7d 43 41 32 01    ........!4?}CA2?
10: 1e 11 01 03 80 34 20 78 0a ef 95 a3 54 4c 9b 26    ?????4 x????TL?&
20: 0f 50 54 ad cf 00 d1 00 a9 40 b3 00 81 80 01 01    ?PT??.?.?@?.????
30: 01 00 01 01 01 01 28 3c 80 a0 70 b0 23 40 30 20    ?.????(<??p?#@0 
40: 36 00 08 40 21 00 00 1a 48 3f 40 30 62 b0 32 40    6.?@!..?H?@0b?2@
50: 40 c0 13 00 08 40 21 00 00 1e 00 00 00 fd 00 3b    @??.?@!..?...?.;
60: 4c 1e 53 12 00 0a 20 20 20 20 20 20 00 00 00 fc    L?S?.?      ...?
70: 00 57 32 34 30 44 20 44 56 49 0a 20 20 20 01 33    .W240D DVI?   ?3
80: 02 03 1c 71 49 90 14 13 12 05 04 03 02 01 23 09    ???qI?????????#?
90: 07 07 83 01 00 00 65 03 0c 00 10 00 8c 0a d0 90    ????..e??.?.????
a0: 20 40 31 20 0c 40 55 00 13 8e 21 00 00 18 01 1d     @1 ?@U.??!..???
b0: 80 18 71 1c 16 20 58 2c 25 00 c4 8e 21 00 00 9e    ??q?? X,%.??!..?
c0: 01 1d 00 72 51 d0 1e 20 6e 28 55 00 c4 8e 21 00    ??.rQ?? n(U.??!.
d0: 00 1e 8c 0a d0 8a 20 e0 2d 10 10 3e 96 00 c4 8e    .????? ?-??>?.??
e0: 21 00 00 18 8c 0a d0 8a 20 e0 2d 10 10 3e 96 00    !..????? ?-??>?.
f0: 13 8e 21 00 00 18 00 00 00 00 00 00 00 00 00 c4    ??!..?.........?
